T54E0 000:015.975   SEGGER J-Link V6.86 Log File
T54E0 000:016.173   DLL Compiled: Sep 24 2020 17:31:31
T54E0 000:016.194   Logging started @ 2020-10-28 14:58
T54E0 000:016.216 - 16.226ms
T54E0 000:016.244 JLINK_SetWarnOutHandler(...)
T54E0 000:016.266 - 0.032ms
T54E0 000:016.288 JLINK_OpenEx(...)
T54E0 000:018.098   Firmware: J-Link V9 compiled Dec 13 2019 11:14:50
T54E0 000:018.324   Decompressing FW timestamp took 135 us
T54E0 000:025.173   Hardware: V9.20
T54E0 000:025.333   S/N: 4294967295
T54E0 000:025.364   OEM: SEGGER
T54E0 000:025.392   Feature(s): None
T54E0 000:026.565   TELNET listener socket opened on port 19021
T54E0 000:026.903   WEBSRV Starting webserver
T54E0 000:027.079   WEBSRV Webserver running on local port 19080
T54E0 000:027.113 - 10.835ms returns "O.K."
T54E0 000:027.145 JLINK_GetEmuCaps()
T54E0 000:027.166 - 0.031ms returns 0xB9FF7BBF
T54E0 000:027.190 JLINK_TIF_GetAvailable(...)
T54E0 000:027.399 - 0.224ms
T54E0 000:027.428 JLINK_SetErrorOutHandler(...)
T54E0 000:027.447 - 0.029ms
T54E0 000:027.488 JLINK_ExecCommand("ProjectFile = "C:\Users\pan39\Desktop\singalchip\CameraT\MDK-ARM\JLinkSettings.ini"", ...). 
T54E0 000:036.488   Ref file found at: C:\Keil_v5\ARM\Segger\JLinkDevices.ref
T54E0 000:036.730   XML referenced by ref file: C:\Program Files (x86)\SEGGER\JLink\JLinkDevices.xml
T54E0 000:037.712   C:\Program Files (x86)\SEGGER\JLink\JLinkDevices.xml evaluated successfully.
T54E0 000:137.844   Device "CORTEX-M7" selected.
T54E0 000:138.336 - 110.861ms returns 0x00
T54E0 000:138.412 JLINK_ExecCommand("Device = STM32H743VITx", ...). 
T54E0 000:138.610   Device "CORTEX-M7" selected.
T54E0 000:139.096 - 0.670ms returns 0x00
T54E0 000:139.126 JLINK_GetHardwareVersion()
T54E0 000:139.144 - 0.026ms returns 92000
T54E0 000:139.172 JLINK_GetDLLVersion()
T54E0 000:139.190 - 0.026ms returns 68600
T54E0 000:139.208 JLINK_GetOEMString(...)
T54E0 000:139.227 JLINK_GetFirmwareString(...)
T54E0 000:139.244 - 0.025ms
T54E0 000:139.277 JLINK_GetDLLVersion()
T54E0 000:139.297 - 0.027ms returns 68600
T54E0 000:139.315 JLINK_GetCompileDateTime()
T54E0 000:139.332 - 0.025ms
T54E0 000:139.355 JLINK_GetFirmwareString(...)
T54E0 000:139.373 - 0.026ms
T54E0 000:139.394 JLINK_GetHardwareVersion()
T54E0 000:139.423 - 0.037ms returns 92000
T54E0 000:139.444 JLINK_GetSN()
T54E0 000:139.462 - 0.026ms returns -1
T54E0 000:139.480 JLINK_GetOEMString(...)
T54E0 000:139.500 JLINK_TIF_Select(JLINKARM_TIF_SWD)
T54E0 000:140.622 - 1.137ms returns 0x00
T54E0 000:140.649 JLINK_HasError()
T54E0 000:140.680 JLINK_SetSpeed(20000)
T54E0 000:141.002 - 0.336ms
T54E0 000:141.028 JLINK_GetId()
T54E0 000:141.978   Found SW-DP with ID 0x6BA02477
T54E0 000:143.752   Old FW that does not support reading DPIDR via DAP jobs
T54E0 000:144.301   Unknown DP version. Assuming DPv0
T54E0 000:144.356   Scanning AP map to find all available APs
T54E0 000:145.365   AP[3]: Stopped AP scan as end of AP map has been reached
T54E0 000:145.403   AP[0]: AHB-AP (IDR: 0x84770001)
T54E0 000:145.447   AP[1]: AHB-AP (IDR: 0x84770001)
T54E0 000:145.478   AP[2]: APB-AP (IDR: 0x54770002)
T54E0 000:145.508   Iterating through AP map to find AHB-AP to use
T54E0 000:146.266   AP[0]: Core found
T54E0 000:146.302   AP[0]: AHB-AP ROM base: 0xE00FE000
T54E0 000:146.626   CPUID register: 0x411FC271. Implementer code: 0x41 (ARM)
T54E0 000:146.660   Found Cortex-M7 r1p1, Little endian.
T54E0 000:248.427   -- Max. mem block: 0x000108B0
T54E0 000:251.224   CPU_ReadMem(4 bytes @ 0xE000EDF0)
T54E0 000:251.628   CPU_ReadMem(4 bytes @ 0xE0002000)
T54E0 000:252.052   FPUnit: 8 code (BP) slots and 0 literal slots
T54E0 000:252.122   CPU_ReadMem(4 bytes @ 0xE000EDFC)
T54E0 000:252.506   CPU_ReadMem(4 bytes @ 0xE0001000)
T54E0 000:252.879   CPU_WriteMem(4 bytes @ 0xE0001000)
T54E0 000:253.141   CPU_ReadMem(4 bytes @ 0xE000ED88)
T54E0 000:253.397   CPU_WriteMem(4 bytes @ 0xE000ED88)
T54E0 000:253.681   CPU_ReadMem(4 bytes @ 0xE000ED88)
T54E0 000:253.956   CPU_WriteMem(4 bytes @ 0xE000ED88)
T54E0 000:254.258   CoreSight components:
T54E0 000:254.380   ROMTbl[0] @ E00FE000
T54E0 000:254.414   CPU_ReadMem(64 bytes @ 0xE00FE000)
T54E0 000:254.883   CPU_ReadMem(32 bytes @ 0xE00FFFE0)
T54E0 000:255.325   ROMTbl[0][0]: E00FF000, CID: B105100D, PID: 000BB4C7 ROM Table
T54E0 000:255.362   ROMTbl[1] @ E00FF000
T54E0 000:255.389   CPU_ReadMem(64 bytes @ 0xE00FF000)
T54E0 000:255.913   CPU_ReadMem(32 bytes @ 0xE000EFE0)
T54E0 000:256.234   ROMTbl[1][0]: E000E000, CID: B105E00D, PID: 000BB00C SCS-M7
T54E0 000:256.265   CPU_ReadMem(32 bytes @ 0xE0001FE0)
T54E0 000:256.573   ROMTbl[1][1]: E0001000, CID: B105E00D, PID: 000BB002 DWT
T54E0 000:256.605   CPU_ReadMem(32 bytes @ 0xE0002FE0)
T54E0 000:256.928   ROMTbl[1][2]: E0002000, CID: B105E00D, PID: 000BB00E FPB-M7
T54E0 000:256.959   CPU_ReadMem(32 bytes @ 0xE0000FE0)
T54E0 000:257.297   ROMTbl[1][3]: E0000000, CID: B105E00D, PID: 000BB001 ITM
T54E0 000:257.328   CPU_ReadMem(32 bytes @ 0xE0041FE0)
T54E0 000:257.638   ROMTbl[0][1]: E0041000, CID: B105900D, PID: 001BB975 ETM-M7
T54E0 000:257.668   CPU_ReadMem(32 bytes @ 0xE0043FE0)
T54E0 000:258.055   ROMTbl[0][2]: E0043000, CID: B105900D, PID: 004BB906 CTI
T54E0 000:258.086   CPU_ReadMem(4 bytes @ 0xE000ED78)
T54E0 000:258.339   Cache: Separate I- and D-cache.
T54E0 000:258.362   CPU_WriteMem(4 bytes @ 0xE000ED84)
T54E0 000:258.625   CPU_ReadMem(4 bytes @ 0xE000ED80)
T54E0 000:258.983   I-Cache L1: 16 KB, 256 Sets, 32 Bytes/Line, 2-Way
T54E0 000:259.015   CPU_WriteMem(4 bytes @ 0xE000ED84)
T54E0 000:259.263   CPU_ReadMem(4 bytes @ 0xE000ED80)
T54E0 000:259.606   D-Cache L1: 16 KB, 128 Sets, 32 Bytes/Line, 4-Way
T54E0 000:260.140 - 119.188ms returns 0x6BA02477
T54E0 000:260.268 JLINK_GetDLLVersion()
T54E0 000:260.308 - 0.065ms returns 68600
T54E0 000:260.357 JLINK_CORE_GetFound()
T54E0 000:260.396 - 0.058ms returns 0xE0100FF
T54E0 000:260.440 JLINK_GetDebugInfo(0x100 = JLINKARM_ROM_TABLE_ADDR_INDEX)
T54E0 000:260.487   Value=0xE00FE000
T54E0 000:260.521 - 0.091ms returns 0
T54E0 000:260.623 JLINK_GetDebugInfo(0x100 = JLINKARM_ROM_TABLE_ADDR_INDEX)
T54E0 000:260.651   Value=0xE00FE000
T54E0 000:260.683 - 0.073ms returns 0
T54E0 000:260.707 JLINK_GetDebugInfo(0x101 = JLINKARM_DEBUG_INFO_ETM_ADDR_INDEX)
T54E0 000:260.726   Value=0xE0041000
T54E0 000:260.753 - 0.055ms returns 0
T54E0 000:260.796 JLINK_ReadMemEx(0xE0041FD0, 0x20 Bytes, Flags = 0x02000004)
T54E0 000:260.850   CPU_ReadMem(32 bytes @ 0xE0041FD0)
T54E0 000:261.217   Data:  04 00 00 00 00 00 00 00 00 00 00 00 00 00 00 00 ...
T54E0 000:261.252 - 0.465ms returns 32 (0x20)
T54E0 000:261.274 JLINK_GetDebugInfo(0x102 = JLINKARM_DEBUG_INFO_MTB_ADDR_INDEX)
T54E0 000:261.294   Value=0x00000000
T54E0 000:261.321 - 0.056ms returns 0
T54E0 000:261.340 JLINK_GetDebugInfo(0x103 = JLINKARM_DEBUG_INFO_TPIU_ADDR_INDEX)
T54E0 000:261.360   Value=0x00000000
T54E0 000:261.387 - 0.055ms returns 0
T54E0 000:261.406 JLINK_ReadMemEx(0xE0040FF0, 0x10 Bytes, Flags = 0x02000004)
T54E0 000:261.429   CPU_ReadMem(16 bytes @ 0xE0040FF0)
T54E0 000:261.750   Data:  00 00 00 00 00 00 00 00 00 00 00 00 00 00 00 00
T54E0 000:261.785 - 0.388ms returns 16 (0x10)
T54E0 000:261.806 JLINK_GetDebugInfo(0x104 = JLINKARM_DEBUG_INFO_ITM_ADDR_INDEX)
T54E0 000:261.831   Value=0xE0000000
T54E0 000:261.857 - 0.059ms returns 0
T54E0 000:261.875 JLINK_GetDebugInfo(0x105 = JLINKARM_DEBUG_INFO_DWT_ADDR_INDEX)
T54E0 000:261.893   Value=0xE0001000
T54E0 000:261.918 - 0.051ms returns 0
T54E0 000:261.937 JLINK_GetDebugInfo(0x106 = JLINKARM_DEBUG_INFO_FPB_ADDR_INDEX)
T54E0 000:261.954   Value=0xE0002000
T54E0 000:261.980 - 0.051ms returns 0
T54E0 000:261.998 JLINK_GetDebugInfo(0x107 = JLINKARM_DEBUG_INFO_NVIC_ADDR_INDEX)
T54E0 000:262.016   Value=0xE000E000
T54E0 000:262.041 - 0.052ms returns 0
T54E0 000:262.059 JLINK_GetDebugInfo(0x10C = JLINKARM_DEBUG_INFO_DBG_ADDR_INDEX)
T54E0 000:262.077   Value=0xE000EDF0
T54E0 000:262.103 - 0.051ms returns 0
T54E0 000:262.121 JLINK_GetDebugInfo(0x01 = Unknown)
T54E0 000:262.139   Value=0x00000001
T54E0 000:262.165 - 0.052ms returns 0
T54E0 000:262.183 JLINK_ReadMemU32(0xE000ED00, 0x1 Items)
T54E0 000:262.211   CPU_ReadMem(4 bytes @ 0xE000ED00)
T54E0 000:262.467   Data:  71 C2 1F 41
T54E0 000:262.508   Debug reg: CPUID
T54E0 000:262.535 - 0.361ms returns 1 (0x1)
T54E0 000:262.560 JLINK_GetDebugInfo(0x10F = JLINKARM_DEBUG_INFO_HAS_CORTEX_M_SECURITY_EXT_INDEX)
T54E0 000:262.579   Value=0x00000000
T54E0 000:262.606 - 0.061ms returns 0
T54E0 000:262.632 JLINK_HasError()
T54E0 000:262.651 JLINK_SetResetType(JLINKARM_CM3_RESET_TYPE_NORMAL)
T54E0 000:262.669 - 0.026ms returns JLINKARM_CM3_RESET_TYPE_NORMAL
T54E0 000:262.688 JLINK_Reset()
T54E0 000:262.736   CPU is running
T54E0 000:262.763   CPU_WriteMem(4 bytes @ 0xE000EDF0)
T54E0 000:263.003   CPU is running
T54E0 000:263.034   CPU_WriteMem(4 bytes @ 0xE000EDFC)
T54E0 000:263.386   Reset: Halt core after reset via DEMCR.VC_CORERESET.
T54E0 000:263.836   Reset: Reset device via AIRCR.SYSRESETREQ.
T54E0 000:263.867   CPU is running
T54E0 000:263.893   CPU_WriteMem(4 bytes @ 0xE000ED0C)
T54E0 000:316.655   CPU_ReadMem(4 bytes @ 0xE000EDF0)
T54E0 000:317.231   CPU_ReadMem(4 bytes @ 0xE000EDF0)
T54E0 000:317.688   CPU is running
T54E0 000:317.721   CPU_WriteMem(4 bytes @ 0xE000EDF0)
T54E0 000:318.006   CPU is running
T54E0 000:318.039   CPU_WriteMem(4 bytes @ 0xE000EDFC)
T54E0 000:323.893   CPU_ReadMem(4 bytes @ 0xE000EDF0)
T54E0 000:325.771   CPU_WriteMem(4 bytes @ 0xE0002000)
T54E0 000:326.143   CPU_ReadMem(4 bytes @ 0xE000EDFC)
T54E0 000:326.492   CPU_ReadMem(4 bytes @ 0xE0001000)
T54E0 000:326.873 - 64.200ms
T54E0 000:326.907 JLINK_HasError()
T54E0 000:326.927 JLINK_ReadReg(R15 (PC))
T54E0 000:326.951 - 0.032ms returns 0x08000338
T54E0 000:326.970 JLINK_ReadReg(XPSR)
T54E0 000:326.987 - 0.025ms returns 0x01000000
T54E0 000:327.006 JLINK_Halt()
T54E0 000:327.023 - 0.024ms returns 0x00
T54E0 000:327.042 JLINK_ReadMemU32(0xE000EDF0, 0x1 Items)
T54E0 000:327.062   CPU_ReadMem(4 bytes @ 0xE000EDF0)
T54E0 000:327.307   Data:  03 00 03 00
T54E0 000:327.340   Debug reg: DHCSR
T54E0 000:327.364 - 0.330ms returns 1 (0x1)
T54E0 000:327.457 JLINK_WriteU32_64(0xE000EDF0, 0xA05F0003)
T54E0 000:327.517   Debug reg: DHCSR
T54E0 000:327.602   CPU_WriteMem(4 bytes @ 0xE000EDF0)
T54E0 000:327.973 - 0.532ms returns 0 (0x00000000)
T54E0 000:328.003 JLINK_WriteU32_64(0xE000EDFC, 0x01000000)
T54E0 000:328.022   Debug reg: DEMCR
T54E0 000:328.052   CPU_WriteMem(4 bytes @ 0xE000EDFC)
T54E0 000:328.386 - 0.397ms returns 0 (0x00000000)
T54E0 000:328.501 JLINK_GetHWStatus(...)
T54E0 000:328.840 - 0.357ms returns 0
T54E0 000:328.895 JLINK_GetNumBPUnits(Type = 0xFFFFFF00)
T54E0 000:328.916 - 0.030ms returns 0x08
T54E0 000:328.936 JLINK_GetNumBPUnits(Type = 0xF0)
T54E0 000:328.955 - 0.028ms returns 0x2000
T54E0 000:328.974 JLINK_GetNumWPUnits()
T54E0 000:328.993 - 0.027ms returns 4
T54E0 000:329.024 JLINK_GetSpeed()
T54E0 000:329.043 - 0.028ms returns 12000
T54E0 000:329.067 JLINK_ReadMemU32(0xE000E004, 0x1 Items)
T54E0 000:329.091   CPU_ReadMem(4 bytes @ 0xE000E004)
T54E0 000:329.339   Data:  04 00 00 00
T54E0 000:329.373 - 0.315ms returns 1 (0x1)
T54E0 000:329.395 JLINK_ReadMemU32(0xE000E004, 0x1 Items)
T54E0 000:329.417   CPU_ReadMem(4 bytes @ 0xE000E004)
T54E0 000:329.663   Data:  04 00 00 00
T54E0 000:329.700 - 0.315ms returns 1 (0x1)
T54E0 000:329.723 JLINK_WriteMemEx(0xE0001000, 0x0000001C Bytes, Flags = 0x02000004)
T54E0 000:329.745   Data:  01 00 00 00 00 00 00 00 00 00 00 00 00 00 00 00 ...
T54E0 000:330.132   CPU_WriteMem(28 bytes @ 0xE0001000)
T54E0 000:330.468 - 0.762ms returns 0x1C
T54E0 000:330.500 JLINK_HasError()
T54E0 000:330.523 JLINK_ReadReg(R15 (PC))
T54E0 000:330.546 - 0.033ms returns 0x08000338
T54E0 000:330.567 JLINK_ReadReg(XPSR)
T54E0 000:330.588 - 0.031ms returns 0x01000000
T54E0 000:336.235 JLINK_ReadMemEx(0xE0001004, 0x4 Bytes, Flags = 0x02000000)
T54E0 000:336.410   Data:  00 00 00 00
T54E0 000:336.455   Debug reg: DWT_CYCCNT
T54E0 000:336.480 - 0.254ms returns 4 (0x4)
T54E0 000:409.951 JLINK_HasError()
T54E0 000:410.005 JLINK_SetResetType(JLINKARM_CM3_RESET_TYPE_NORMAL)
T54E0 000:410.029 - 0.035ms returns JLINKARM_CM3_RESET_TYPE_NORMAL
T54E0 000:410.051 JLINK_Reset()
T54E0 000:410.081   CPU_WriteMem(4 bytes @ 0xE000EDF0)
T54E0 000:410.528   CPU_WriteMem(4 bytes @ 0xE000EDFC)
T54E0 000:410.918   Reset: Halt core after reset via DEMCR.VC_CORERESET.
T54E0 000:411.483   Reset: Reset device via AIRCR.SYSRESETREQ.
T54E0 000:411.517   CPU_WriteMem(4 bytes @ 0xE000ED0C)
T54E0 000:464.502   CPU_ReadMem(4 bytes @ 0xE000EDF0)
T54E0 000:464.980   CPU_ReadMem(4 bytes @ 0xE000EDF0)
T54E0 000:465.413   CPU_WriteMem(4 bytes @ 0xE000EDF0)
T54E0 000:465.792   CPU_WriteMem(4 bytes @ 0xE000EDFC)
T54E0 000:471.902   CPU_ReadMem(4 bytes @ 0xE000EDF0)
T54E0 000:473.920   CPU_WriteMem(4 bytes @ 0xE0002000)
T54E0 000:474.232   CPU_ReadMem(4 bytes @ 0xE000EDFC)
T54E0 000:474.632   CPU_ReadMem(4 bytes @ 0xE0001000)
T54E0 000:475.029 - 64.995ms
T54E0 000:475.174 JLINK_HasError()
T54E0 000:475.200 JLINK_ReadReg(R15 (PC))
T54E0 000:475.229 - 0.038ms returns 0x08000338
T54E0 000:475.250 JLINK_ReadReg(XPSR)
T54E0 000:475.270 - 0.029ms returns 0x01000000
T54E0 000:476.440 JLINK_ReadMemEx(0x08000338, 0x3C Bytes, Flags = 0x02000000)
T54E0 000:476.474   CPU_ReadMem(60 bytes @ 0x08000338)
T54E0 000:476.952   Data:  09 48 80 47 09 48 00 47 FE E7 FE E7 FE E7 FE E7 ...
T54E0 000:476.991 - 0.562ms returns 60 (0x3C)
T54E0 000:477.015 JLINK_ReadMemEx(0x08000338, 0x2 Bytes, Flags = 0x02000000)
T54E0 000:477.038   CPU_ReadMem(2 bytes @ 0x08000338)
T54E0 000:477.383   Data:  09 48
T54E0 000:477.417 - 0.411ms returns 2 (0x2)
T54E0 000:477.483 JLINK_ReadMemEx(0x0800033A, 0x2 Bytes, Flags = 0x02000000)
T54E0 000:477.506   CPU_ReadMem(2 bytes @ 0x0800033A)
T54E0 000:477.763   Data:  80 47
T54E0 000:477.797 - 0.323ms returns 2 (0x2)
T54E0 000:477.827 JLINK_ReadMemEx(0x0800033A, 0x2 Bytes, Flags = 0x02000000)
T54E0 000:477.850   CPU_ReadMem(2 bytes @ 0x0800033A)
T54E0 000:478.131   Data:  80 47
T54E0 000:478.163 - 0.344ms returns 2 (0x2)
T54E0 000:478.183 JLINK_ReadMemEx(0x0800033C, 0x3C Bytes, Flags = 0x02000000)
T54E0 000:478.204   CPU_ReadMem(60 bytes @ 0x0800033C)
T54E0 000:478.660   Data:  09 48 00 47 FE E7 FE E7 FE E7 FE E7 FE E7 FE E7 ...
T54E0 000:478.692 - 0.517ms returns 60 (0x3C)
T54E0 000:478.712 JLINK_ReadMemEx(0x0800033C, 0x2 Bytes, Flags = 0x02000000)
T54E0 000:478.733   CPU_ReadMem(2 bytes @ 0x0800033C)
T54E0 000:479.123   Data:  09 48
T54E0 000:479.191 - 0.497ms returns 2 (0x2)
T54E0 002:321.999 JLINK_HasError()
T54E0 002:322.042 JLINK_ReadReg(R0)
T54E0 002:322.333 - 0.305ms returns 0x00000000
T54E0 002:322.359 JLINK_ReadReg(R1)
T54E0 002:322.378 - 0.026ms returns 0x00000000
T54E0 002:322.396 JLINK_ReadReg(R2)
T54E0 002:322.414 - 0.026ms returns 0x00000000
T54E0 002:322.432 JLINK_ReadReg(R3)
T54E0 002:322.450 - 0.026ms returns 0x00000000
T54E0 002:322.468 JLINK_ReadReg(R4)
T54E0 002:322.485 - 0.026ms returns 0x00000000
T54E0 002:322.504 JLINK_ReadReg(R5)
T54E0 002:322.521 - 0.026ms returns 0x00000000
T54E0 002:322.540 JLINK_ReadReg(R6)
T54E0 002:322.563 - 0.035ms returns 0x00000000
T54E0 002:322.585 JLINK_ReadReg(R7)
T54E0 002:322.602 - 0.025ms returns 0x00000000
T54E0 002:322.620 JLINK_ReadReg(R8)
T54E0 002:322.652 - 0.040ms returns 0x00000000
T54E0 002:322.669 JLINK_ReadReg(R9)
T54E0 002:322.686 - 0.025ms returns 0x00000000
T54E0 002:322.704 JLINK_ReadReg(R10)
T54E0 002:322.721 - 0.025ms returns 0x00000000
T54E0 002:322.738 JLINK_ReadReg(R11)
T54E0 002:322.757 - 0.026ms returns 0x00000000
T54E0 002:322.774 JLINK_ReadReg(R12)
T54E0 002:322.791 - 0.025ms returns 0x00000000
T54E0 002:322.809 JLINK_ReadReg(R13 (SP))
T54E0 002:322.826 - 0.025ms returns 0x2400B7E8
T54E0 002:322.843 JLINK_ReadReg(R14)
T54E0 002:322.860 - 0.025ms returns 0xFFFFFFFF
T54E0 002:322.878 JLINK_ReadReg(R15 (PC))
T54E0 002:322.895 - 0.025ms returns 0x08000338
T54E0 002:322.913 JLINK_ReadReg(XPSR)
T54E0 002:322.931 - 0.026ms returns 0x01000000
T54E0 002:322.948 JLINK_ReadReg(MSP)
T54E0 002:322.965 - 0.025ms returns 0x2400B7E8
T54E0 002:323.059 JLINK_ReadReg(PSP)
T54E0 002:323.079 - 0.028ms returns 0x00000000
T54E0 002:323.097 JLINK_ReadReg(CFBP)
T54E0 002:323.115 - 0.026ms returns 0x00000000
T54E0 002:323.132 JLINK_ReadReg(FPSCR)
T54E0 002:325.435 - 2.321ms returns 0x00000000
T54E0 002:325.467 JLINK_ReadReg(FPS0)
T54E0 002:325.490 - 0.033ms returns 0x00000000
T54E0 002:325.511 JLINK_ReadReg(FPS1)
T54E0 002:325.533 - 0.031ms returns 0x00000000
T54E0 002:325.555 JLINK_ReadReg(FPS2)
T54E0 002:325.576 - 0.031ms returns 0x00000000
T54E0 002:325.597 JLINK_ReadReg(FPS3)
T54E0 002:325.618 - 0.031ms returns 0x00000000
T54E0 002:325.640 JLINK_ReadReg(FPS4)
T54E0 002:325.661 - 0.031ms returns 0x00000000
T54E0 002:325.683 JLINK_ReadReg(FPS5)
T54E0 002:325.704 - 0.031ms returns 0x00000000
T54E0 002:325.726 JLINK_ReadReg(FPS6)
T54E0 002:325.747 - 0.032ms returns 0x00000000
T54E0 002:325.770 JLINK_ReadReg(FPS7)
T54E0 002:325.791 - 0.031ms returns 0x00000000
T54E0 002:325.813 JLINK_ReadReg(FPS8)
T54E0 002:325.834 - 0.031ms returns 0x00000000
T54E0 002:325.856 JLINK_ReadReg(FPS9)
T54E0 002:325.877 - 0.031ms returns 0x00000000
T54E0 002:325.899 JLINK_ReadReg(FPS10)
T54E0 002:325.920 - 0.031ms returns 0x00000000
T54E0 002:325.942 JLINK_ReadReg(FPS11)
T54E0 002:325.963 - 0.031ms returns 0x00000000
T54E0 002:325.985 JLINK_ReadReg(FPS12)
T54E0 002:326.006 - 0.031ms returns 0x00000000
T54E0 002:326.027 JLINK_ReadReg(FPS13)
T54E0 002:326.049 - 0.031ms returns 0x00000000
T54E0 002:326.070 JLINK_ReadReg(FPS14)
T54E0 002:326.092 - 0.031ms returns 0x00000000
T54E0 002:326.113 JLINK_ReadReg(FPS15)
T54E0 002:326.134 - 0.031ms returns 0xFFFFFFFF
T54E0 002:326.156 JLINK_ReadReg(FPS16)
T54E0 002:326.177 - 0.031ms returns 0x00000000
T54E0 002:326.199 JLINK_ReadReg(FPS17)
T54E0 002:326.220 - 0.031ms returns 0x00000000
T54E0 002:326.242 JLINK_ReadReg(FPS18)
T54E0 002:326.263 - 0.031ms returns 0x00000000
T54E0 002:326.285 JLINK_ReadReg(FPS19)
T54E0 002:326.306 - 0.031ms returns 0x00000000
T54E0 002:326.328 JLINK_ReadReg(FPS20)
T54E0 002:326.349 - 0.031ms returns 0x00000000
T54E0 002:326.370 JLINK_ReadReg(FPS21)
T54E0 002:326.392 - 0.031ms returns 0x00000000
T54E0 002:326.413 JLINK_ReadReg(FPS22)
T54E0 002:326.434 - 0.031ms returns 0x00000000
T54E0 002:326.456 JLINK_ReadReg(FPS23)
T54E0 002:326.478 - 0.031ms returns 0x00000000
T54E0 002:326.499 JLINK_ReadReg(FPS24)
T54E0 002:326.520 - 0.030ms returns 0x00000000
T54E0 002:326.539 JLINK_ReadReg(FPS25)
T54E0 002:326.557 - 0.026ms returns 0x00000000
T54E0 002:326.575 JLINK_ReadReg(FPS26)
T54E0 002:326.593 - 0.026ms returns 0x00000000
T54E0 002:326.611 JLINK_ReadReg(FPS27)
T54E0 002:326.628 - 0.026ms returns 0x00000000
T54E0 002:326.647 JLINK_ReadReg(FPS28)
T54E0 002:326.664 - 0.026ms returns 0x00000000
T54E0 002:326.682 JLINK_ReadReg(FPS29)
T54E0 002:326.700 - 0.026ms returns 0x00000000
T54E0 002:326.718 JLINK_ReadReg(FPS30)
T54E0 002:326.735 - 0.026ms returns 0x00000000
T54E0 002:326.754 JLINK_ReadReg(FPS31)
T54E0 002:326.772 - 0.026ms returns 0xFFFFFFFF
T54E0 002:334.784 JLINK_ReadMemEx(0x24000078, 0x4 Bytes, Flags = 0x02000000)
T54E0 002:334.853   CPU_ReadMem(4 bytes @ 0x24000078)
T54E0 002:335.316   Data:  00 00 00 00
T54E0 002:335.373 - 0.598ms returns 4 (0x4)
T54E0 002:343.772 JLINK_ReadMemEx(0x24000078, 0x4 Bytes, Flags = 0x02000000)
T54E0 002:343.834   CPU_ReadMem(4 bytes @ 0x24000078)
T54E0 002:344.272   Data:  00 00 00 00
T54E0 002:344.306 - 0.542ms returns 4 (0x4)
T54E0 002:344.355 JLINK_ReadMemEx(0x24000078, 0x4 Bytes, Flags = 0x02000000)
T54E0 002:344.376   CPU_ReadMem(4 bytes @ 0x24000078)
T54E0 002:344.769   Data:  00 00 00 00
T54E0 002:344.802 - 0.456ms returns 4 (0x4)
T54E0 002:349.254 JLINK_ReadMemEx(0x2400007C, 0x4 Bytes, Flags = 0x02000000)
T54E0 002:349.320   CPU_ReadMem(4 bytes @ 0x2400007C)
T54E0 002:349.643   Data:  00 80 2C 05
T54E0 002:349.677 - 0.431ms returns 4 (0x4)
T5338 002:382.253 JLINK_ReadMemEx(0x08000338, 0x2 Bytes, Flags = 0x02000000)
T5338 002:382.349   CPU_ReadMem(2 bytes @ 0x08000338)
T5338 002:382.756   Data:  09 48
T5338 002:382.844 - 0.613ms returns 2 (0x2)
T5338 002:382.893 JLINK_HasError()
T5338 002:382.938 JLINK_SetBPEx(Addr = 0x08004558, Type = 0xFFFFFFF2)
T5338 002:382.987 - 0.070ms returns 0x00000001
T5338 002:383.032 JLINK_HasError()
T5338 002:383.075 JLINK_SetBPEx(Addr = 0x080026D6, Type = 0xFFFFFFF2)
T5338 002:383.120 - 0.065ms returns 0x00000002
T5338 002:383.164 JLINK_HasError()
T5338 002:383.208 JLINK_HasError()
T5338 002:383.252 JLINK_Go()
T5338 002:383.321   CPU_WriteMem(4 bytes @ 0xE0002000)
T5338 002:383.832   CPU_WriteMem(4 bytes @ 0xE0002000)
T5338 002:384.310   CPU_ReadMem(4 bytes @ 0xE0001000)
T5338 002:384.756   CPU_WriteMem(4 bytes @ 0xE0002008)
T5338 002:384.795   CPU_WriteMem(4 bytes @ 0xE000200C)
T5338 002:384.821   CPU_WriteMem(4 bytes @ 0xE0002010)
T5338 002:384.847   CPU_WriteMem(4 bytes @ 0xE0002014)
T5338 002:384.872   CPU_WriteMem(4 bytes @ 0xE0002018)
T5338 002:384.897   CPU_WriteMem(4 bytes @ 0xE000201C)
T5338 002:384.923   CPU_WriteMem(4 bytes @ 0xE0002020)
T5338 002:384.948   CPU_WriteMem(4 bytes @ 0xE0002024)
T5338 002:386.034   CPU_WriteMem(4 bytes @ 0xE0001004)
T5338 002:386.672 - 3.454ms
T5338 002:486.823 JLINK_HasError()
T5338 002:486.880 JLINK_IsHalted()
T5338 002:488.362 - 1.502ms returns TRUE
T5338 002:488.396 JLINK_HasError()
T5338 002:488.416 JLINK_Halt()
T5338 002:488.459 - 0.051ms returns 0x00
T5338 002:488.478 JLINK_IsHalted()
T5338 002:488.496 - 0.026ms returns TRUE
T5338 002:488.514 JLINK_IsHalted()
T5338 002:488.542 - 0.036ms returns TRUE
T5338 002:488.561 JLINK_IsHalted()
T5338 002:488.578 - 0.026ms returns TRUE
T5338 002:488.598 JLINK_HasError()
T5338 002:488.619 JLINK_ReadReg(R15 (PC))
T5338 002:488.644 - 0.034ms returns 0x08004558
T5338 002:488.664 JLINK_ReadReg(XPSR)
T5338 002:488.682 - 0.028ms returns 0x21000000
T5338 002:488.715 JLINK_HasError()
T5338 002:488.742 JLINK_ClrBPEx(BPHandle = 0x00000001)
T5338 002:488.765 - 0.033ms returns 0x00
T5338 002:488.788 JLINK_HasError()
T5338 002:488.812 JLINK_ClrBPEx(BPHandle = 0x00000002)
T5338 002:488.846 - 0.044ms returns 0x00
T5338 002:488.873 JLINK_HasError()
T5338 002:488.896 JLINK_HasError()
T5338 002:488.920 JLINK_ReadMemU32(0xE000ED30, 0x1 Items)
T5338 002:488.957   CPU_ReadMem(4 bytes @ 0xE000ED30)
T5338 002:489.248   Data:  02 00 00 00
T5338 002:489.288 - 0.378ms returns 1 (0x1)
T5338 002:489.313 JLINK_ReadMemU32(0xE0001028, 0x1 Items)
T5338 002:489.339   CPU_ReadMem(4 bytes @ 0xE0001028)
T5338 002:489.596   Data:  00 00 00 00
T5338 002:489.634   Debug reg: DWT_FUNC[0]
T5338 002:489.664 - 0.361ms returns 1 (0x1)
T5338 002:489.688 JLINK_ReadMemU32(0xE0001038, 0x1 Items)
T5338 002:489.712   CPU_ReadMem(4 bytes @ 0xE0001038)
T5338 002:489.968   Data:  00 02 00 00
T5338 002:490.000   Debug reg: DWT_FUNC[1]
T5338 002:490.028 - 0.349ms returns 1 (0x1)
T5338 002:490.050 JLINK_ReadMemU32(0xE0001048, 0x1 Items)
T5338 002:490.073   CPU_ReadMem(4 bytes @ 0xE0001048)
T5338 002:490.316   Data:  00 00 00 00
T5338 002:490.348   Debug reg: DWT_FUNC[2]
T5338 002:490.376 - 0.334ms returns 1 (0x1)
T5338 002:490.398 JLINK_ReadMemU32(0xE0001058, 0x1 Items)
T5338 002:490.421   CPU_ReadMem(4 bytes @ 0xE0001058)
T5338 002:490.652   Data:  00 00 00 00
T5338 002:490.684   Debug reg: DWT_FUNC[3]
T5338 002:490.711 - 0.322ms returns 1 (0x1)
T5338 002:490.772 JLINK_HasError()
T5338 002:490.794 JLINK_ReadReg(R0)
T5338 002:490.815 - 0.029ms returns 0x240097E8
T5338 002:490.833 JLINK_ReadReg(R1)
T5338 002:490.851 - 0.026ms returns 0x2400A7E8
T5338 002:490.870 JLINK_ReadReg(R2)
T5338 002:490.888 - 0.026ms returns 0x2400A7E8
T5338 002:490.906 JLINK_ReadReg(R3)
T5338 002:490.924 - 0.026ms returns 0x2400A7E8
T5338 002:490.942 JLINK_ReadReg(R4)
T5338 002:490.960 - 0.026ms returns 0x00000000
T5338 002:490.978 JLINK_ReadReg(R5)
T5338 002:490.996 - 0.026ms returns 0x24000018
T5338 002:491.014 JLINK_ReadReg(R6)
T5338 002:491.032 - 0.026ms returns 0x00000000
T5338 002:491.050 JLINK_ReadReg(R7)
T5338 002:491.068 - 0.026ms returns 0x00000000
T5338 002:491.087 JLINK_ReadReg(R8)
T5338 002:491.109 - 0.033ms returns 0x00000000
T5338 002:491.130 JLINK_ReadReg(R9)
T5338 002:491.148 - 0.026ms returns 0x00000000
T5338 002:491.166 JLINK_ReadReg(R10)
T5338 002:491.184 - 0.026ms returns 0x08004618
T5338 002:491.202 JLINK_ReadReg(R11)
T5338 002:491.220 - 0.026ms returns 0x00000000
T5338 002:491.239 JLINK_ReadReg(R12)
T5338 002:491.256 - 0.026ms returns 0x24000058
T5338 002:491.275 JLINK_ReadReg(R13 (SP))
T5338 002:491.293 - 0.026ms returns 0x2400B7E8
T5338 002:491.311 JLINK_ReadReg(R14)
T5338 002:491.329 - 0.026ms returns 0x08000327
T5338 002:491.347 JLINK_ReadReg(R15 (PC))
T5338 002:491.365 - 0.026ms returns 0x08004558
T5338 002:491.384 JLINK_ReadReg(XPSR)
T5338 002:491.402 - 0.026ms returns 0x21000000
T5338 002:491.420 JLINK_ReadReg(MSP)
T5338 002:491.438 - 0.026ms returns 0x2400B7E8
T5338 002:491.456 JLINK_ReadReg(PSP)
T5338 002:491.474 - 0.026ms returns 0x00000000
T5338 002:491.493 JLINK_ReadReg(CFBP)
T5338 002:491.510 - 0.026ms returns 0x04000000
T5338 002:491.529 JLINK_ReadReg(FPSCR)
T5338 002:493.502 - 1.986ms returns 0x03000000
T5338 002:493.526 JLINK_ReadReg(FPS0)
T5338 002:493.544 - 0.026ms returns 0x00000000
T5338 002:493.561 JLINK_ReadReg(FPS1)
T5338 002:493.578 - 0.025ms returns 0x00000000
T5338 002:493.596 JLINK_ReadReg(FPS2)
T5338 002:493.612 - 0.025ms returns 0x00000000
T5338 002:493.630 JLINK_ReadReg(FPS3)
T5338 002:493.647 - 0.025ms returns 0x00000000
T5338 002:493.664 JLINK_ReadReg(FPS4)
T5338 002:493.681 - 0.025ms returns 0x00000000
T5338 002:493.698 JLINK_ReadReg(FPS5)
T5338 002:493.715 - 0.024ms returns 0x00000000
T5338 002:493.732 JLINK_ReadReg(FPS6)
T5338 002:493.750 - 0.027ms returns 0x00000000
T5338 002:493.769 JLINK_ReadReg(FPS7)
T5338 002:493.787 - 0.027ms returns 0x00000000
T5338 002:493.806 JLINK_ReadReg(FPS8)
T5338 002:493.823 - 0.025ms returns 0x00000000
T5338 002:493.840 JLINK_ReadReg(FPS9)
T5338 002:493.857 - 0.025ms returns 0x00000000
T5338 002:493.874 JLINK_ReadReg(FPS10)
T5338 002:493.891 - 0.025ms returns 0x00000000
T5338 002:493.908 JLINK_ReadReg(FPS11)
T5338 002:493.925 - 0.025ms returns 0x00000000
T5338 002:493.942 JLINK_ReadReg(FPS12)
T5338 002:493.959 - 0.025ms returns 0x00000000
T5338 002:493.976 JLINK_ReadReg(FPS13)
T5338 002:493.993 - 0.025ms returns 0x00000000
T5338 002:494.011 JLINK_ReadReg(FPS14)
T5338 002:494.028 - 0.025ms returns 0x00000000
T5338 002:494.045 JLINK_ReadReg(FPS15)
T5338 002:494.062 - 0.025ms returns 0xFFFFFFFF
T5338 002:494.079 JLINK_ReadReg(FPS16)
T5338 002:494.096 - 0.025ms returns 0x00000000
T5338 002:494.114 JLINK_ReadReg(FPS17)
T5338 002:494.130 - 0.025ms returns 0x00000000
T5338 002:494.148 JLINK_ReadReg(FPS18)
T5338 002:494.164 - 0.025ms returns 0x00000000
T5338 002:494.182 JLINK_ReadReg(FPS19)
T5338 002:494.199 - 0.025ms returns 0x00000000
T5338 002:494.216 JLINK_ReadReg(FPS20)
T5338 002:494.233 - 0.025ms returns 0x00000000
T5338 002:494.250 JLINK_ReadReg(FPS21)
T5338 002:494.267 - 0.025ms returns 0x00000000
T5338 002:494.284 JLINK_ReadReg(FPS22)
T5338 002:494.301 - 0.025ms returns 0x00000000
T5338 002:494.318 JLINK_ReadReg(FPS23)
T5338 002:494.335 - 0.025ms returns 0x00000000
T5338 002:494.352 JLINK_ReadReg(FPS24)
T5338 002:494.369 - 0.025ms returns 0x00000000
T5338 002:494.387 JLINK_ReadReg(FPS25)
T5338 002:494.403 - 0.025ms returns 0x00000000
T5338 002:494.421 JLINK_ReadReg(FPS26)
T5338 002:494.437 - 0.024ms returns 0x00000000
T5338 002:494.455 JLINK_ReadReg(FPS27)
T5338 002:494.471 - 0.025ms returns 0x00000000
T5338 002:494.489 JLINK_ReadReg(FPS28)
T5338 002:494.506 - 0.025ms returns 0x00000000
T5338 002:494.523 JLINK_ReadReg(FPS29)
T5338 002:494.540 - 0.025ms returns 0x00000000
T5338 002:494.557 JLINK_ReadReg(FPS30)
T5338 002:494.574 - 0.025ms returns 0x00000000
T5338 002:494.591 JLINK_ReadReg(FPS31)
T5338 002:494.608 - 0.025ms returns 0xFFFFFFFF
T54E0 002:497.422 JLINK_HasError()
T54E0 002:497.473 JLINK_ReadMemU32(0xE0001004, 0x1 Items)
T54E0 002:497.507   CPU_ReadMem(4 bytes @ 0xE0001004)
T54E0 002:497.829   Data:  29 32 00 00
T54E0 002:497.877   Debug reg: DWT_CYCCNT
T54E0 002:497.912 - 0.449ms returns 1 (0x1)
T54E0 002:498.376 JLINK_ReadMemEx(0x24000078, 0x4 Bytes, Flags = 0x02000000)
T54E0 002:498.406   CPU_ReadMem(4 bytes @ 0x24000078)
T54E0 002:498.635   Data:  00 00 00 00
T54E0 002:498.667 - 0.299ms returns 4 (0x4)
T54E0 002:498.714 JLINK_ReadMemEx(0x2400007C, 0x4 Bytes, Flags = 0x02000000)
T54E0 002:498.736   CPU_ReadMem(4 bytes @ 0x2400007C)
T54E0 002:498.973   Data:  00 00 00 00
T54E0 002:499.003 - 0.298ms returns 4 (0x4)
T5338 002:959.556 JLINK_ReadMemEx(0x08004558, 0x2 Bytes, Flags = 0x02000000)
T5338 002:959.629   CPU_ReadMem(64 bytes @ 0x08004540)
T5338 002:960.145    -- Updating DA cache (64 bytes @ 0x08004540)
T5338 002:960.181    -- Read from DA cache (2 bytes @ 0x08004558)
T5338 002:960.207   Data:  FC F7
T5338 002:960.231 - 0.684ms returns 2 (0x2)
T5338 002:960.252 JLINK_HasError()
T5338 002:960.270 JLINK_SetBPEx(Addr = 0x080026D6, Type = 0xFFFFFFF2)
T5338 002:960.290 - 0.028ms returns 0x00000003
T5338 002:960.308 JLINK_HasError()
T5338 002:960.325 JLINK_HasError()
T5338 002:960.343 JLINK_Go()
T5338 002:960.364   CPU_WriteMem(4 bytes @ 0xE0002000)
T5338 002:960.656   CPU_ReadMem(4 bytes @ 0xE0001000)
T5338 002:961.006   CPU_WriteMem(4 bytes @ 0xE0002008)
T5338 002:961.040   CPU_WriteMem(4 bytes @ 0xE000200C)
T5338 002:962.005 - 1.686ms
T5338 003:062.949 JLINK_HasError()
T5338 003:063.008 JLINK_IsHalted()
T5338 003:063.388 - 0.410ms returns FALSE
T5338 003:164.000 JLINK_HasError()
T5338 003:164.089 JLINK_IsHalted()
T5338 003:164.408 - 0.356ms returns FALSE
T5338 003:265.021 JLINK_HasError()
T5338 003:265.108 JLINK_IsHalted()
T5338 003:265.398 - 0.312ms returns FALSE
T5338 003:366.047 JLINK_HasError()
T5338 003:366.130 JLINK_IsHalted()
T5338 003:366.556 - 0.495ms returns FALSE
T5338 003:467.067 JLINK_HasError()
T5338 003:467.129 JLINK_HasError()
T5338 003:467.151 JLINK_ReadMemU32(0xE0001004, 0x1 Items)
T5338 003:467.207   CPU_ReadMem(4 bytes @ 0xE0001004)
T5338 003:467.509   Data:  12 0C 75 0E
T5338 003:467.547   Debug reg: DWT_CYCCNT
T5338 003:467.576 - 0.435ms returns 1 (0x1)
T54E0 003:467.712 JLINK_ReadMemEx(0x24000078, 0x4 Bytes, Flags = 0x02000000)
T54E0 003:467.758   CPU_ReadMem(4 bytes @ 0x24000078)
T54E0 003:468.025   Data:  01 00 00 00
T54E0 003:468.058 - 0.354ms returns 4 (0x4)
T54E0 003:469.370 JLINK_ReadMemEx(0x2400007C, 0x4 Bytes, Flags = 0x02000000)
T54E0 003:469.440   CPU_ReadMem(4 bytes @ 0x2400007C)
T54E0 003:469.715   Data:  49 40 01 01
T54E0 003:469.751 - 0.389ms returns 4 (0x4)
T5338 003:470.526 JLINK_IsHalted()
T5338 003:470.856 - 0.352ms returns FALSE
T5338 003:571.098 JLINK_HasError()
T5338 003:571.164 JLINK_IsHalted()
T5338 003:571.472 - 0.350ms returns FALSE
T5338 003:672.103 JLINK_HasError()
T5338 003:672.161 JLINK_IsHalted()
T5338 003:672.496 - 0.350ms returns FALSE
T5338 003:773.175 JLINK_HasError()
T5338 003:773.333 JLINK_IsHalted()
T5338 003:773.791 - 0.490ms returns FALSE
T5338 003:874.179 JLINK_HasError()
T5338 003:874.279 JLINK_IsHalted()
T5338 003:874.854 - 0.618ms returns FALSE
T5338 003:975.189 JLINK_HasError()
T5338 003:975.276 JLINK_IsHalted()
T5338 003:975.614 - 0.356ms returns FALSE
T5338 004:076.210 JLINK_HasError()
T5338 004:076.267 JLINK_HasError()
T5338 004:076.285 JLINK_ReadMemU32(0xE0001004, 0x1 Items)
T5338 004:076.317   Data:  12 0C 75 0E
T5338 004:076.342   Debug reg: DWT_CYCCNT
T5338 004:076.367 - 0.089ms returns 1 (0x1)
T54E0 004:076.499 JLINK_ReadMemEx(0x24000078, 0x4 Bytes, Flags = 0x02000000)
T54E0 004:076.562   CPU_ReadMem(4 bytes @ 0x24000078)
T54E0 004:077.005   Data:  01 00 00 00
T54E0 004:077.092 - 0.616ms returns 4 (0x4)
T54E0 004:079.097 JLINK_ReadMemEx(0x2400007C, 0x4 Bytes, Flags = 0x02000000)
T54E0 004:079.193   CPU_ReadMem(4 bytes @ 0x2400007C)
T54E0 004:079.601   Data:  41 00 01 01
T54E0 004:079.646 - 0.558ms returns 4 (0x4)
T5338 004:080.139 JLINK_IsHalted()
T5338 004:080.498 - 0.390ms returns FALSE
T54E0 004:120.677 JLINK_ReadMemEx(0x2400007C, 0x4 Bytes, Flags = 0x02000000)
T54E0 004:120.839   CPU_ReadMem(4 bytes @ 0x2400007C)
T54E0 004:121.146   Data:  00 FF 01 01
T54E0 004:121.186 - 0.521ms returns 4 (0x4)
T54E0 004:121.229 JLINK_ReadMemEx(0x2400007C, 0x1 Bytes, Flags = 0x02000000)
T54E0 004:121.270   CPU_ReadMem(1 bytes @ 0x2400007C)
T54E0 004:121.518   Data:  00
T54E0 004:121.549 - 0.328ms returns 1 (0x1)
T54E0 004:121.582 JLINK_ReadMemEx(0x2400007D, 0x1 Bytes, Flags = 0x02000000)
T54E0 004:121.606   CPU_ReadMem(1 bytes @ 0x2400007D)
T54E0 004:121.976   Data:  FF
T54E0 004:122.008 - 0.434ms returns 1 (0x1)
T54E0 004:122.039 JLINK_ReadMemEx(0x2400007E, 0x1 Bytes, Flags = 0x02000000)
T54E0 004:122.063   CPU_ReadMem(1 bytes @ 0x2400007E)
T54E0 004:122.314   Data:  01
T54E0 004:122.347 - 0.316ms returns 1 (0x1)
T54E0 004:122.374 JLINK_ReadMemEx(0x2400007F, 0x1 Bytes, Flags = 0x02000000)
T54E0 004:122.396   CPU_ReadMem(1 bytes @ 0x2400007F)
T54E0 004:122.724   Data:  01
T54E0 004:122.762 - 0.396ms returns 1 (0x1)
T54E0 004:122.804 JLINK_ReadMemEx(0x2400007C, 0x4 Bytes, Flags = 0x02000000)
T54E0 004:122.827   CPU_ReadMem(4 bytes @ 0x2400007C)
T54E0 004:123.108   Data:  00 FF 01 01
T54E0 004:123.144 - 0.348ms returns 4 (0x4)
T54E0 004:123.166 JLINK_ReadMemEx(0x2400007C, 0x1 Bytes, Flags = 0x02000000)
T54E0 004:123.189   CPU_ReadMem(1 bytes @ 0x2400007C)
T54E0 004:123.442   Data:  00
T54E0 004:123.478 - 0.321ms returns 1 (0x1)
T54E0 004:123.503 JLINK_ReadMemEx(0x2400007D, 0x1 Bytes, Flags = 0x02000000)
T54E0 004:123.525   CPU_ReadMem(1 bytes @ 0x2400007D)
T54E0 004:123.825   Data:  FF
T54E0 004:123.857 - 0.363ms returns 1 (0x1)
T54E0 004:123.885 JLINK_ReadMemEx(0x2400007E, 0x1 Bytes, Flags = 0x02000000)
T54E0 004:123.905   CPU_ReadMem(1 bytes @ 0x2400007E)
T54E0 004:124.141   Data:  01
T54E0 004:124.174 - 0.298ms returns 1 (0x1)
T54E0 004:124.200 JLINK_ReadMemEx(0x2400007F, 0x1 Bytes, Flags = 0x02000000)
T54E0 004:124.222   CPU_ReadMem(1 bytes @ 0x2400007F)
T54E0 004:124.463   Data:  01
T54E0 004:124.494 - 0.302ms returns 1 (0x1)
T54E0 004:132.130 JLINK_ReadMemEx(0x2400007C, 0x4 Bytes, Flags = 0x02000000)
T54E0 004:132.326   CPU_ReadMem(4 bytes @ 0x2400007C)
T54E0 004:132.842   Data:  00 FF 01 01
T54E0 004:132.885 - 0.766ms returns 4 (0x4)
T54E0 004:132.920 JLINK_ReadMemEx(0x2400007C, 0x1 Bytes, Flags = 0x02000000)
T54E0 004:132.946   CPU_ReadMem(1 bytes @ 0x2400007C)
T54E0 004:133.253   Data:  00
T54E0 004:133.338 - 0.440ms returns 1 (0x1)
T54E0 004:133.725 JLINK_ReadMemEx(0x2400007D, 0x1 Bytes, Flags = 0x02000000)
T54E0 004:133.792   CPU_ReadMem(1 bytes @ 0x2400007D)
T54E0 004:134.069   Data:  FF
T54E0 004:134.104 - 0.388ms returns 1 (0x1)
T54E0 004:134.130 JLINK_ReadMemEx(0x2400007E, 0x1 Bytes, Flags = 0x02000000)
T54E0 004:134.154   CPU_ReadMem(1 bytes @ 0x2400007E)
T54E0 004:134.388   Data:  01
T54E0 004:134.422 - 0.302ms returns 1 (0x1)
T54E0 004:134.448 JLINK_ReadMemEx(0x2400007F, 0x1 Bytes, Flags = 0x02000000)
T54E0 004:134.472   CPU_ReadMem(1 bytes @ 0x2400007F)
T54E0 004:134.708   Data:  01
T54E0 004:134.742 - 0.304ms returns 1 (0x1)
T5338 004:181.309 JLINK_HasError()
T5338 004:181.427 JLINK_IsHalted()
T5338 004:181.869 - 0.484ms returns FALSE
T5338 004:282.293 JLINK_HasError()
T5338 004:282.399 JLINK_IsHalted()
T5338 004:282.976 - 0.621ms returns FALSE
T5338 004:383.336 JLINK_HasError()
T5338 004:383.451 JLINK_IsHalted()
T5338 004:383.873 - 0.466ms returns FALSE
T5338 004:484.416 JLINK_HasError()
T5338 004:484.606 JLINK_IsHalted()
T5338 004:485.192 - 0.624ms returns FALSE
T5338 004:585.466 JLINK_HasError()
T5338 004:585.581 JLINK_IsHalted()
T5338 004:586.013 - 0.474ms returns FALSE
T5338 004:686.368 JLINK_HasError()
T5338 004:686.448 JLINK_HasError()
T5338 004:686.486 JLINK_ReadMemU32(0xE0001004, 0x1 Items)
T5338 004:686.539   Data:  12 0C 75 0E
T5338 004:686.592   Debug reg: DWT_CYCCNT
T5338 004:686.676 - 0.208ms returns 1 (0x1)
T54E0 004:686.822 JLINK_ReadMemEx(0x24000078, 0x4 Bytes, Flags = 0x02000000)
T54E0 004:686.858   CPU_ReadMem(4 bytes @ 0x24000078)
T54E0 004:687.290   Data:  01 00 00 00
T54E0 004:687.342 - 0.534ms returns 4 (0x4)
T54E0 004:687.416 JLINK_ReadMemEx(0x2400007C, 0x4 Bytes, Flags = 0x02000000)
T54E0 004:687.446   CPU_ReadMem(4 bytes @ 0x2400007C)
T54E0 004:687.783   Data:  20 40 01 01
T54E0 004:687.821 - 0.414ms returns 4 (0x4)
T54E0 004:689.037 JLINK_ReadMemEx(0x2400007C, 0x1 Bytes, Flags = 0x02000000)
T54E0 004:689.069   CPU_ReadMem(1 bytes @ 0x2400007C)
T54E0 004:689.372   Data:  A2
T54E0 004:689.461 - 0.442ms returns 1 (0x1)
T54E0 004:689.995 JLINK_ReadMemEx(0x2400007D, 0x1 Bytes, Flags = 0x02000000)
T54E0 004:690.033   CPU_ReadMem(1 bytes @ 0x2400007D)
T54E0 004:690.407   Data:  40
T54E0 004:690.442 - 0.456ms returns 1 (0x1)
T54E0 004:690.753 JLINK_ReadMemEx(0x2400007E, 0x1 Bytes, Flags = 0x02000000)
T54E0 004:690.782   CPU_ReadMem(1 bytes @ 0x2400007E)
T54E0 004:691.149   Data:  01
T54E0 004:691.182 - 0.438ms returns 1 (0x1)
T54E0 004:691.205 JLINK_ReadMemEx(0x2400007F, 0x1 Bytes, Flags = 0x02000000)
T54E0 004:691.227   CPU_ReadMem(1 bytes @ 0x2400007F)
T54E0 004:691.502   Data:  01
T54E0 004:691.534 - 0.337ms returns 1 (0x1)
T5338 004:691.606 JLINK_IsHalted()
T5338 004:691.986 - 0.394ms returns FALSE
T5338 004:792.449 JLINK_HasError()
T5338 004:792.657 JLINK_IsHalted()
T5338 004:794.407 - 1.768ms returns TRUE
T5338 004:794.440 JLINK_HasError()
T5338 004:794.463 JLINK_Halt()
T5338 004:794.485 - 0.032ms returns 0x00
T5338 004:794.507 JLINK_IsHalted()
T5338 004:794.529 - 0.032ms returns TRUE
T5338 004:794.552 JLINK_IsHalted()
T5338 004:794.573 - 0.032ms returns TRUE
T5338 004:794.596 JLINK_IsHalted()
T5338 004:794.617 - 0.032ms returns TRUE
T5338 004:794.641 JLINK_HasError()
T5338 004:794.664 JLINK_ReadReg(R15 (PC))
T5338 004:794.688 - 0.035ms returns 0x080026D6
T5338 004:794.711 JLINK_ReadReg(XPSR)
T5338 004:794.733 - 0.033ms returns 0x61000086
T5338 004:794.758 JLINK_HasError()
T5338 004:794.781 JLINK_ClrBPEx(BPHandle = 0x00000003)
T5338 004:794.804 - 0.033ms returns 0x00
T5338 004:794.827 JLINK_HasError()
T5338 004:794.849 JLINK_HasError()
T5338 004:794.871 JLINK_ReadMemU32(0xE000ED30, 0x1 Items)
T5338 004:794.899   CPU_ReadMem(4 bytes @ 0xE000ED30)
T5338 004:795.173   Data:  02 00 00 00
T5338 004:795.214 - 0.355ms returns 1 (0x1)
T5338 004:795.240 JLINK_ReadMemU32(0xE0001028, 0x1 Items)
T5338 004:795.266   CPU_ReadMem(4 bytes @ 0xE0001028)
T5338 004:795.539   Data:  00 00 00 00
T5338 004:795.571   Debug reg: DWT_FUNC[0]
T5338 004:795.596 - 0.363ms returns 1 (0x1)
T5338 004:795.615 JLINK_ReadMemU32(0xE0001038, 0x1 Items)
T5338 004:795.636   CPU_ReadMem(4 bytes @ 0xE0001038)
T5338 004:795.996   Data:  00 02 00 00
T5338 004:796.029   Debug reg: DWT_FUNC[1]
T5338 004:796.053 - 0.446ms returns 1 (0x1)
T5338 004:796.072 JLINK_ReadMemU32(0xE0001048, 0x1 Items)
T5338 004:796.093   CPU_ReadMem(4 bytes @ 0xE0001048)
T5338 004:796.393   Data:  00 00 00 00
T5338 004:796.463   Debug reg: DWT_FUNC[2]
T5338 004:796.515 - 0.460ms returns 1 (0x1)
T5338 004:796.557 JLINK_ReadMemU32(0xE0001058, 0x1 Items)
T5338 004:796.600   CPU_ReadMem(4 bytes @ 0xE0001058)
T5338 004:796.970   Data:  00 00 00 00
T5338 004:797.038   Debug reg: DWT_FUNC[3]
T5338 004:797.090 - 0.550ms returns 1 (0x1)
T5338 004:797.192 JLINK_HasError()
T5338 004:797.212 JLINK_ReadReg(R0)
T5338 004:797.232 - 0.028ms returns 0x00000000
T5338 004:797.250 JLINK_ReadReg(R1)
T5338 004:797.266 - 0.025ms returns 0x00001000
T5338 004:797.284 JLINK_ReadReg(R2)
T5338 004:797.301 - 0.025ms returns 0x00000001
T5338 004:797.318 JLINK_ReadReg(R3)
T5338 004:797.335 - 0.025ms returns 0x00000003
T5338 004:797.352 JLINK_ReadReg(R4)
T5338 004:797.370 - 0.026ms returns 0x00000078
T5338 004:797.388 JLINK_ReadReg(R5)
T5338 004:797.404 - 0.024ms returns 0x24000078
T5338 004:797.421 JLINK_ReadReg(R6)
T5338 004:797.438 - 0.025ms returns 0x00000000
T5338 004:797.456 JLINK_ReadReg(R7)
T5338 004:797.472 - 0.025ms returns 0x00000000
T5338 004:797.490 JLINK_ReadReg(R8)
T5338 004:797.507 - 0.025ms returns 0x00000000
T5338 004:797.524 JLINK_ReadReg(R9)
T5338 004:797.541 - 0.025ms returns 0x00000000
T5338 004:797.562 JLINK_ReadReg(R10)
T5338 004:797.582 - 0.028ms returns 0x08004618
T5338 004:797.599 JLINK_ReadReg(R11)
T5338 004:797.616 - 0.025ms returns 0x00000000
T5338 004:797.633 JLINK_ReadReg(R12)
T5338 004:797.650 - 0.025ms returns 0x0000501F
T5338 004:797.667 JLINK_ReadReg(R13 (SP))
T5338 004:797.684 - 0.025ms returns 0x2400B758
T5338 004:797.702 JLINK_ReadReg(R14)
T5338 004:797.719 - 0.025ms returns 0x0800313D
T5338 004:797.736 JLINK_ReadReg(R15 (PC))
T5338 004:797.753 - 0.025ms returns 0x080026D6
T5338 004:797.770 JLINK_ReadReg(XPSR)
T5338 004:797.787 - 0.025ms returns 0x61000086
T5338 004:797.805 JLINK_ReadReg(MSP)
T5338 004:797.822 - 0.024ms returns 0x2400B758
T5338 004:797.839 JLINK_ReadReg(PSP)
T5338 004:797.856 - 0.025ms returns 0x00000000
T5338 004:797.873 JLINK_ReadReg(CFBP)
T5338 004:797.890 - 0.025ms returns 0x00000000
T5338 004:797.908 JLINK_ReadReg(FPSCR)
T5338 004:800.163 - 2.270ms returns 0x03000000
T5338 004:800.191 JLINK_ReadReg(FPS0)
T5338 004:800.215 - 0.036ms returns 0x1C9C3800
T5338 004:800.241 JLINK_ReadReg(FPS1)
T5338 004:800.266 - 0.036ms returns 0x00000000
T5338 004:800.289 JLINK_ReadReg(FPS2)
T5338 004:800.312 - 0.033ms returns 0x40000000
T5338 004:800.335 JLINK_ReadReg(FPS3)
T5338 004:800.359 - 0.035ms returns 0x00000000
T5338 004:800.382 JLINK_ReadReg(FPS4)
T5338 004:800.405 - 0.033ms returns 0x40A00000
T5338 004:800.428 JLINK_ReadReg(FPS5)
T5338 004:800.450 - 0.033ms returns 0x00000000
T5338 004:800.473 JLINK_ReadReg(FPS6)
T5338 004:800.496 - 0.033ms returns 0x433F0000
T5338 004:800.519 JLINK_ReadReg(FPS7)
T5338 004:800.542 - 0.033ms returns 0x00000000
T5338 004:800.565 JLINK_ReadReg(FPS8)
T5338 004:800.587 - 0.033ms returns 0x39000000
T5338 004:800.610 JLINK_ReadReg(FPS9)
T5338 004:800.633 - 0.033ms returns 0x00000000
T5338 004:800.656 JLINK_ReadReg(FPS10)
T5338 004:800.678 - 0.033ms returns 0x00000000
T5338 004:800.701 JLINK_ReadReg(FPS11)
T5338 004:800.724 - 0.033ms returns 0x00000000
T5338 004:800.747 JLINK_ReadReg(FPS12)
T5338 004:800.770 - 0.033ms returns 0x00000000
T5338 004:800.793 JLINK_ReadReg(FPS13)
T5338 004:800.815 - 0.033ms returns 0x00000000
T5338 004:800.838 JLINK_ReadReg(FPS14)
T5338 004:800.861 - 0.033ms returns 0x00000000
T5338 004:800.884 JLINK_ReadReg(FPS15)
T5338 004:800.906 - 0.033ms returns 0xFFFFFFFF
T5338 004:800.930 JLINK_ReadReg(FPS16)
T5338 004:800.952 - 0.033ms returns 0x00000000
T5338 004:800.975 JLINK_ReadReg(FPS17)
T5338 004:800.997 - 0.033ms returns 0x00000000
T5338 004:801.021 JLINK_ReadReg(FPS18)
T5338 004:801.043 - 0.033ms returns 0x00000000
T5338 004:801.066 JLINK_ReadReg(FPS19)
T5338 004:801.088 - 0.033ms returns 0x00000000
T5338 004:801.112 JLINK_ReadReg(FPS20)
T5338 004:801.134 - 0.033ms returns 0x00000000
T5338 004:801.158 JLINK_ReadReg(FPS21)
T5338 004:801.222 - 0.094ms returns 0x00000000
T5338 004:801.287 JLINK_ReadReg(FPS22)
T5338 004:801.350 - 0.100ms returns 0x00000000
T5338 004:801.421 JLINK_ReadReg(FPS23)
T5338 004:801.474 - 0.076ms returns 0x00000000
T5338 004:801.522 JLINK_ReadReg(FPS24)
T5338 004:801.568 - 0.069ms returns 0x00000000
T5338 004:801.617 JLINK_ReadReg(FPS25)
T5338 004:801.663 - 0.069ms returns 0x00000000
T5338 004:801.711 JLINK_ReadReg(FPS26)
T5338 004:801.758 - 0.069ms returns 0x00000000
T5338 004:801.806 JLINK_ReadReg(FPS27)
T5338 004:801.852 - 0.068ms returns 0x00000000
T5338 004:801.900 JLINK_ReadReg(FPS28)
T5338 004:801.946 - 0.069ms returns 0x00000000
T5338 004:802.077 JLINK_ReadReg(FPS29)
T5338 004:802.127 - 0.073ms returns 0x00000000
T5338 004:802.176 JLINK_ReadReg(FPS30)
T5338 004:802.223 - 0.062ms returns 0x00000000
T5338 004:802.248 JLINK_ReadReg(FPS31)
T5338 004:802.266 - 0.026ms returns 0xFFFFFFFF
T54E0 004:802.536 JLINK_ReadMemEx(0x2400B76C, 0x4 Bytes, Flags = 0x02000000)
T54E0 004:802.599   CPU_ReadMem(4 bytes @ 0x2400B76C)
T54E0 004:802.974   Data:  0F 26 00 08
T54E0 004:803.041 - 0.523ms returns 4 (0x4)
T54E0 004:804.020 JLINK_ReadMemEx(0x2400B760, 0x4 Bytes, Flags = 0x02000000)
T54E0 004:804.049   CPU_ReadMem(4 bytes @ 0x2400B760)
T54E0 004:804.340   Data:  0C 01 00 24
T54E0 004:804.375 - 0.365ms returns 4 (0x4)
T54E0 004:804.404 JLINK_ReadMemEx(0x2400B764, 0x4 Bytes, Flags = 0x02000000)
T54E0 004:804.435   CPU_ReadMem(4 bytes @ 0x2400B764)
T54E0 004:804.738   Data:  18 00 00 24
T54E0 004:804.772 - 0.376ms returns 4 (0x4)
T54E0 004:804.793 JLINK_ReadMemEx(0x2400B768, 0x4 Bytes, Flags = 0x02000000)
T54E0 004:804.814   CPU_ReadMem(4 bytes @ 0x2400B768)
T54E0 004:805.071   Data:  00 00 00 00
T54E0 004:805.104 - 0.319ms returns 4 (0x4)
T54E0 004:805.124 JLINK_ReadMemEx(0x2400B76C, 0x4 Bytes, Flags = 0x02000000)
T54E0 004:805.147   CPU_ReadMem(4 bytes @ 0x2400B76C)
T54E0 004:805.487   Data:  0F 26 00 08
T54E0 004:805.522 - 0.406ms returns 4 (0x4)
T54E0 004:805.549 JLINK_ReadMemEx(0x2400B774, 0x4 Bytes, Flags = 0x02000000)
T54E0 004:805.572   CPU_ReadMem(4 bytes @ 0x2400B774)
T54E0 004:805.833   Data:  27 39 00 08
T54E0 004:805.868 - 0.328ms returns 4 (0x4)
T54E0 004:806.260 JLINK_ReadMemEx(0x2400B770, 0x4 Bytes, Flags = 0x02000000)
T54E0 004:806.286   CPU_ReadMem(4 bytes @ 0x2400B770)
T54E0 004:806.610   Data:  00 00 00 00
T54E0 004:806.644 - 0.394ms returns 4 (0x4)
T54E0 004:806.666 JLINK_ReadMemEx(0x2400B774, 0x4 Bytes, Flags = 0x02000000)
T54E0 004:806.689   CPU_ReadMem(4 bytes @ 0x2400B774)
T54E0 004:806.947   Data:  27 39 00 08
T54E0 004:806.981 - 0.323ms returns 4 (0x4)
T54E0 004:807.003 JLINK_ReadMemEx(0x2400B77C, 0x4 Bytes, Flags = 0x02000000)
T54E0 004:807.025   CPU_ReadMem(4 bytes @ 0x2400B77C)
T54E0 004:807.361   Data:  E9 FF FF FF
T54E0 004:807.396 - 0.402ms returns 4 (0x4)
T54E0 004:807.417 JLINK_ReadMemEx(0x2400B798, 0x4 Bytes, Flags = 0x02000000)
T54E0 004:807.439   CPU_ReadMem(4 bytes @ 0x2400B798)
T54E0 004:807.696   Data:  E0 24 00 08
T54E0 004:807.729 - 0.320ms returns 4 (0x4)
T54E0 004:807.750 JLINK_ReadMemEx(0x2400B79C, 0x4 Bytes, Flags = 0x02000000)
T54E0 004:807.771   CPU_ReadMem(4 bytes @ 0x2400B79C)
T54E0 004:808.019   Data:  00 00 00 21
T54E0 004:808.052 - 0.311ms returns 4 (0x4)
T54E0 004:808.073 JLINK_ReadMemEx(0x2400B794, 0x4 Bytes, Flags = 0x02000000)
T54E0 004:808.094   CPU_ReadMem(4 bytes @ 0x2400B794)
T54E0 004:808.369   Data:  A5 45 00 08
T54E0 004:808.401 - 0.336ms returns 4 (0x4)
T54E0 004:808.421 JLINK_ReadMemEx(0xE000ED28, 0x4 Bytes, Flags = 0x02000000)
T54E0 004:808.442   CPU_ReadMem(4 bytes @ 0xE000ED28)
T54E0 004:808.731   Data:  00 00 00 00
T54E0 004:808.763 - 0.350ms returns 4 (0x4)
T54E0 004:808.796 JLINK_ReadMemEx(0x2400B778, 0x4 Bytes, Flags = 0x02000000)
T54E0 004:808.817   CPU_ReadMem(4 bytes @ 0x2400B778)
T54E0 004:809.070   Data:  00 00 00 00
T54E0 004:809.102 - 0.314ms returns 4 (0x4)
T54E0 004:809.122 JLINK_ReadMemEx(0x2400B77C, 0x4 Bytes, Flags = 0x02000000)
T54E0 004:809.143   CPU_ReadMem(4 bytes @ 0x2400B77C)
T54E0 004:809.486   Data:  E9 FF FF FF
T54E0 004:809.518 - 0.404ms returns 4 (0x4)
T54E0 004:809.539 JLINK_ReadMemEx(0x2400B804, 0x4 Bytes, Flags = 0x02000000)
T54E0 004:809.560   CPU_ReadMem(4 bytes @ 0x2400B804)
T54E0 004:809.870   Data:  00 00 00 00
T54E0 004:809.937 - 0.416ms returns 4 (0x4)
T54E0 004:809.979 JLINK_ReadMemEx(0x2400B808, 0x4 Bytes, Flags = 0x02000000)
T54E0 004:810.023   CPU_ReadMem(4 bytes @ 0x2400B808)
T54E0 004:810.311   Data:  00 00 00 00
T54E0 004:810.343 - 0.372ms returns 4 (0x4)
T54E0 004:810.363 JLINK_ReadMemEx(0x2400B800, 0x4 Bytes, Flags = 0x02000000)
T54E0 004:810.385   CPU_ReadMem(4 bytes @ 0x2400B800)
T54E0 004:810.732   Data:  00 00 00 00
T54E0 004:810.764 - 0.408ms returns 4 (0x4)
T54E0 004:810.784 JLINK_ReadMemEx(0xE000ED28, 0x4 Bytes, Flags = 0x02000000)
T54E0 004:810.805   CPU_ReadMem(4 bytes @ 0xE000ED28)
T54E0 004:811.059   Data:  00 00 00 00
T54E0 004:811.127 - 0.360ms returns 4 (0x4)
T54E0 004:814.267 JLINK_HasError()
T54E0 004:814.313 JLINK_ReadMemU32(0xE0001004, 0x1 Items)
T54E0 004:814.342   Data:  12 0C 75 0E
T54E0 004:814.374   Debug reg: DWT_CYCCNT
T54E0 004:814.399 - 0.095ms returns 1 (0x1)
T54E0 004:814.937 JLINK_ReadMemEx(0x24000078, 0x4 Bytes, Flags = 0x02000000)
T54E0 004:814.972   CPU_ReadMem(4 bytes @ 0x24000078)
T54E0 004:815.362   Data:  01 00 00 00
T54E0 004:815.402 - 0.478ms returns 4 (0x4)
T54E0 004:815.456 JLINK_ReadMemEx(0x2400007C, 0x4 Bytes, Flags = 0x02000000)
T54E0 004:815.478   CPU_ReadMem(4 bytes @ 0x2400007C)
T54E0 004:815.717   Data:  00 FF 01 01
T54E0 004:815.747 - 0.299ms returns 4 (0x4)
T54E0 004:816.188 JLINK_ReadMemEx(0x2400007C, 0x1 Bytes, Flags = 0x02000000)
T54E0 004:816.220   CPU_ReadMem(1 bytes @ 0x2400007C)
T54E0 004:816.467   Data:  00
T54E0 004:816.497 - 0.317ms returns 1 (0x1)
T54E0 004:816.730 JLINK_ReadMemEx(0x2400007D, 0x1 Bytes, Flags = 0x02000000)
T54E0 004:816.756   CPU_ReadMem(1 bytes @ 0x2400007D)
T54E0 004:816.986   Data:  FF
T54E0 004:817.016 - 0.294ms returns 1 (0x1)
T54E0 004:817.456 JLINK_ReadMemEx(0x2400007E, 0x1 Bytes, Flags = 0x02000000)
T54E0 004:817.482   CPU_ReadMem(1 bytes @ 0x2400007E)
T54E0 004:817.706   Data:  01
T54E0 004:817.736 - 0.289ms returns 1 (0x1)
T54E0 004:817.759 JLINK_ReadMemEx(0x2400007F, 0x1 Bytes, Flags = 0x02000000)
T54E0 004:817.780   CPU_ReadMem(1 bytes @ 0x2400007F)
T54E0 004:818.009   Data:  01
T54E0 004:818.040 - 0.289ms returns 1 (0x1)
T54E0 004:821.923 JLINK_ReadMemEx(0x080026D6, 0x2 Bytes, Flags = 0x02000000)
T54E0 004:821.993   CPU_ReadMem(64 bytes @ 0x080026C0)
T54E0 004:822.456    -- Updating DA cache (64 bytes @ 0x080026C0)
T54E0 004:822.488    -- Read from DA cache (2 bytes @ 0x080026D6)
T54E0 004:822.514   Data:  28 60
T54E0 004:822.540 - 0.625ms returns 2 (0x2)
T54E0 004:822.561 JLINK_ReadMemEx(0x080026D8, 0x3C Bytes, Flags = 0x02000000)
T54E0 004:822.582   CPU_ReadMem(64 bytes @ 0x08002700)
T54E0 004:822.999    -- Updating DA cache (64 bytes @ 0x08002700)
T54E0 004:823.030    -- Read from DA cache (60 bytes @ 0x080026D8)
